T332C 000:049.252   SEGGER J-Link V6.70e Log File
T332C 000:049.424   DLL Compiled: Apr 17 2020 17:55:05
T332C 000:049.428   Logging started @ 2024-04-04 01:37
T332C 000:049.434 JLINK_SetWarnOutHandler(...)
T332C 000:049.439 - 0.006ms
T332C 000:049.445 JLINK_OpenEx(...)
T332C 000:052.623   Firmware: J-Link ARM-OB STM32 compiled Aug 22 2012 19:52:04
T332C 000:055.958   Hardware: V7.00
T332C 000:055.973   S/N: 20090928
T332C 000:055.978   OEM: SEGGER
T332C 000:055.982   Feature(s): RDI,FlashDL,FlashBP,JFlash,GDBFull
T332C 000:057.600   TELNET listener socket opened on port 19021
T332C 000:057.706   WEBSRV Starting webserver
T332C 000:057.882   WEBSRV Webserver running on local port 19080
T332C 000:057.890 - 8.447ms returns "O.K."
T332C 000:057.910 JLINK_GetEmuCaps()
T332C 000:057.914 - 0.006ms returns 0x88EA5833
T332C 000:057.921 JLINK_TIF_GetAvailable(...)
T332C 000:058.354 - 0.439ms
T332C 000:058.368 JLINK_SetErrorOutHandler(...)
T332C 000:058.371 - 0.005ms
T332C 000:058.385 JLINK_ExecCommand("ProjectFile = "G:\StepMotorCtlF4\MDK-ARM\JLinkSettings.ini"", ...). 
T332C 000:065.542 - 7.174ms returns 0x00
T332C 000:066.903 JLINK_ExecCommand("Device = STM32F407ZGTx", ...). 
T332C 000:068.472   Device "STM32F407ZG" selected.
T332C 000:068.826 - 1.877ms returns 0x00
T332C 000:068.838 JLINK_ExecCommand("DisableConnectionTimeout", ...). 
T332C 000:068.846 - 0.004ms returns 0x01
T332C 000:068.851 JLINK_GetHardwareVersion()
T332C 000:068.854 - 0.005ms returns 0x11170
T332C 000:068.859 JLINK_GetDLLVersion()  returns 67005
T332C 000:068.867 JLINK_GetFirmwareString(...)
T332C 000:068.871 - 0.005ms
T332C 000:074.901 JLINK_GetDLLVersion()  returns 67005
T332C 000:074.923 JLINK_GetCompileDateTime()
T332C 000:074.926 - 0.004ms
T332C 000:076.958 JLINK_GetFirmwareString(...)
T332C 000:076.970 - 0.014ms
T332C 000:078.953 JLINK_GetHardwareVersion()
T332C 000:078.962 - 0.010ms returns 0x11170
T332C 000:087.490 JLINK_TIF_Select(JLINKARM_TIF_SWD)
T332C 000:089.334 - 1.852ms returns 0x00
T332C 000:089.368 JLINK_SetSpeed(5000)
T332C 000:089.821 - 0.457ms
T332C 000:089.829 JLINK_GetId()
T332C 000:094.354   Found SW-DP with ID 0x2BA01477
T332C 000:125.233   Found SW-DP with ID 0x2BA01477
T332C 000:131.671   Old FW that does not support reading DPIDR via DAP jobs
T332C 000:143.784   Unknown DP version. Assuming DPv0
T332C 000:145.782   Scanning AP map to find all available APs
T332C 000:153.937   AP[1]: Stopped AP scan as end of AP map has been reached
T332C 000:155.982   AP[0]: AHB-AP (IDR: 0x24770011)
T332C 000:157.996   Iterating through AP map to find AHB-AP to use
T332C 000:169.434   AP[0]: Core found
T332C 000:172.142   AP[0]: AHB-AP ROM base: 0xE00FF000
T332C 000:179.184   CPUID register: 0x410FC241. Implementer code: 0x41 (ARM)
T332C 000:181.512   Found Cortex-M4 r0p1, Little endian.
T332C 000:284.432    -- Max. mem block: 0x00002C18
T332C 000:284.507   CPU_ReadMem(4 bytes @ 0xE000EDF0)
T332C 000:286.260   CPU_WriteMem(4 bytes @ 0xE000EDF0)
T332C 000:287.371   CPU_ReadMem(4 bytes @ 0xE0002000)
T332C 000:290.624   FPUnit: 6 code (BP) slots and 2 literal slots
T332C 000:290.644   CPU_ReadMem(4 bytes @ 0xE000EDFC)
T332C 000:291.484   CPU_WriteMem(4 bytes @ 0xE000EDFC)
T332C 000:292.496   CPU_ReadMem(4 bytes @ 0xE0001000)
T332C 000:293.297   CPU_WriteMem(4 bytes @ 0xE0001000)
T332C 000:294.285   CPU_ReadMem(4 bytes @ 0xE000ED88)
T332C 000:295.145   CPU_WriteMem(4 bytes @ 0xE000ED88)
T332C 000:296.042   CPU_ReadMem(4 bytes @ 0xE000ED88)
T332C 000:296.771   CPU_WriteMem(4 bytes @ 0xE000ED88)
T332C 000:302.075   CoreSight components:
T332C 000:304.319   ROMTbl[0] @ E00FF000
T332C 000:304.340   CPU_ReadMem(64 bytes @ 0xE00FF000)
T332C 000:305.728   CPU_ReadMem(32 bytes @ 0xE000EFE0)
T332C 000:309.149   ROMTbl[0][0]: E000E000, CID: B105E00D, PID: 000BB00C SCS-M7
T332C 000:309.164   CPU_ReadMem(32 bytes @ 0xE0001FE0)
T332C 000:312.727   ROMTbl[0][1]: E0001000, CID: B105E00D, PID: 003BB002 DWT
T332C 000:312.744   CPU_ReadMem(32 bytes @ 0xE0002FE0)
T332C 000:316.846   ROMTbl[0][2]: E0002000, CID: B105E00D, PID: 002BB003 FPB
T332C 000:316.978   CPU_ReadMem(32 bytes @ 0xE0000FE0)
T332C 000:322.354   ROMTbl[0][3]: E0000000, CID: B105E00D, PID: 003BB001 ITM
T332C 000:322.382   CPU_ReadMem(32 bytes @ 0xE0040FE0)
T332C 000:325.934   ROMTbl[0][4]: E0040000, CID: B105900D, PID: 000BB9A1 TPIU
T332C 000:325.953   CPU_ReadMem(32 bytes @ 0xE0041FE0)
T332C 000:329.242   ROMTbl[0][5]: E0041000, CID: B105900D, PID: 000BB925 ETM
T332C 000:330.468 - 240.648ms   returns 0x2BA01477
T332C 000:330.490 JLINK_GetDLLVersion()  returns 67005
T332C 000:330.495 JLINK_CORE_GetFound()
T332C 000:330.498 - 0.005ms returns 0xE0000FF
T332C 000:330.503 JLINK_GetDebugInfo(0x100 = JLINKARM_ROM_TABLE_ADDR_INDEX)
T332C 000:330.515   Value=0xE00FF000
T332C 000:330.523 - 0.022ms returns 0x00
T332C 000:334.024 JLINK_GetDebugInfo(0x100 = JLINKARM_ROM_TABLE_ADDR_INDEX)
T332C 000:334.084   Value=0xE00FF000
T332C 000:334.093 - 0.073ms returns 0x00
T332C 000:334.101 JLINK_GetDebugInfo(0x101 = JLINKARM_DEBUG_INFO_ETM_ADDR_INDEX)
T332C 000:334.106   Value=0xE0041000
T332C 000:334.111 - 0.011ms returns 0x00
T332C 000:334.139   JLINK_ReadMemEx(0xE0041FD0, 0x0020 Bytes, ..., Flags = 0x02000004)
T332C 000:334.188   CPU_ReadMem(32 bytes @ 0xE0041FD0)
T332C 000:335.261   Data:  04 00 00 00 00 00 00 00 00 00 00 00 00 00 00 00 ...
T332C 000:335.278 - 1.144ms returns 0x20
T332C 000:335.288 JLINK_GetDebugInfo(0x102 = JLINKARM_DEBUG_INFO_MTB_ADDR_INDEX)
T332C 000:335.292   Value=0x00000000
T332C 000:335.296 - 0.010ms returns 0x00
T332C 000:335.300 JLINK_GetDebugInfo(0x103 = JLINKARM_DEBUG_INFO_TPIU_ADDR_INDEX)
T332C 000:335.304   Value=0xE0040000
T332C 000:335.309 - 0.010ms returns 0x00
T332C 000:335.313 JLINK_GetDebugInfo(0x104 = JLINKARM_DEBUG_INFO_ITM_ADDR_INDEX)
T332C 000:335.316   Value=0xE0000000
T332C 000:335.322 - 0.010ms returns 0x00
T332C 000:335.325 JLINK_GetDebugInfo(0x105 = JLINKARM_DEBUG_INFO_DWT_ADDR_INDEX)
T332C 000:335.329   Value=0xE0001000
T332C 000:335.333 - 0.009ms returns 0x00
T332C 000:335.337 JLINK_GetDebugInfo(0x106 = JLINKARM_DEBUG_INFO_FPB_ADDR_INDEX)
T332C 000:335.341   Value=0xE0002000
T332C 000:335.345 - 0.009ms returns 0x00
T332C 000:335.349 JLINK_GetDebugInfo(0x107 = JLINKARM_DEBUG_INFO_NVIC_ADDR_INDEX)
T332C 000:335.353   Value=0xE000E000
T332C 000:335.357 - 0.009ms returns 0x00
T332C 000:335.361 JLINK_GetDebugInfo(0x10C = JLINKARM_DEBUG_INFO_DBG_ADDR_INDEX)
T332C 000:335.365   Value=0xE000EDF0
T332C 000:335.369 - 0.009ms returns 0x00
T332C 000:335.374 JLINK_GetDebugInfo(0x01 = Unknown)
T332C 000:335.379   Value=0x00000001
T332C 000:335.383 - 0.011ms returns 0x00
T332C 000:335.390 JLINK_ReadMemU32(0xE000ED00, 0x0001 Items, ...)
T332C 000:335.402   CPU_ReadMem(4 bytes @ 0xE000ED00)
T332C 000:336.172   Data:  41 C2 0F 41
T332C 000:336.189    - CPUID
T332C 000:336.193 - 0.805ms returns 1
T332C 000:336.200 JLINK_GetDebugInfo(0x10F = JLINKARM_DEBUG_INFO_HAS_CORTEX_M_SECURITY_EXT_INDEX)
T332C 000:336.205   Value=0x00000000
T332C 000:336.209 - 0.010ms returns 0x00
T332C 000:336.216 JLINK_SetResetType(JLINKARM_CM3_RESET_TYPE_NORMAL)
T332C 000:336.220 - 0.005ms returns JLINKARM_CM3_RESET_TYPE_NORMAL
T332C 000:336.224 JLINK_Reset()
T332C 000:336.242   CPU is running
T332C 000:336.249   CPU_WriteMem(4 bytes @ 0xE000EDF0)
T332C 000:337.006   CPU is running
T332C 000:337.018   CPU_WriteMem(4 bytes @ 0xE000EDFC)
T332C 000:340.256   Reset: Halt core after reset via DEMCR.VC_CORERESET.
T332C 000:343.822   Reset: Reset device via AIRCR.SYSRESETREQ.
T332C 000:343.846   CPU is running
T332C 000:343.854   CPU_WriteMem(4 bytes @ 0xE000ED0C)
T332C 000:398.099   CPU_ReadMem(4 bytes @ 0xE000EDF0)
T332C 000:399.397   CPU_ReadMem(4 bytes @ 0xE000EDF0)
T332C 000:400.689   CPU is running
T332C 000:400.747   CPU_WriteMem(4 bytes @ 0xE000EDF0)
T332C 000:401.991   CPU is running
T332C 000:402.041   CPU_WriteMem(4 bytes @ 0xE000EDFC)
T332C 000:408.478   CPU_ReadMem(4 bytes @ 0xE000EDF0)
T332C 000:415.397   CPU_WriteMem(4 bytes @ 0xE0002000)
T332C 000:417.173   CPU_ReadMem(4 bytes @ 0xE000EDFC)
T332C 000:418.597   CPU_ReadMem(4 bytes @ 0xE0001000)
T332C 000:419.914 - 83.721ms
T332C 000:419.989 JLINK_Halt()
T332C 000:420.007 - 0.026ms returns 0x00
T332C 000:420.028 JLINK_ReadMemU32(0xE000EDF0, 0x0001 Items, ...)
T332C 000:420.071   CPU_ReadMem(4 bytes @ 0xE000EDF0)
T332C 000:421.380   Data:  03 00 03 00
T332C 000:421.446    - DHCSR
T332C 000:421.467 - 1.446ms returns 1
T332C 000:421.517 JLINK_WriteU32(0xE000EDF0, 0xA05F0003)
T332C 000:421.540    - DHCSR
T332C 000:421.627   CPU_WriteMem(4 bytes @ 0xE000EDF0)
T332C 000:422.969 - 1.495ms returns 0
T332C 000:423.054 JLINK_WriteU32(0xE000EDFC, 0x01000000)
T332C 000:423.077    - DEMCR
T332C 000:423.158   CPU_WriteMem(4 bytes @ 0xE000EDFC)
T332C 000:424.377 - 1.362ms returns 0
T332C 000:433.524 JLINK_GetHWStatus(...)
T332C 000:434.368 - 0.856ms returns 0x00
T332C 000:444.316 JLINK_GetNumBPUnits(Type = 0xFFFFFF00)
T332C 000:444.344 - 0.029ms returns 0x06
T332C 000:444.349 JLINK_GetNumBPUnits(Type = 0xF0)
T332C 000:444.352 - 0.005ms returns 0x2000
T332C 000:444.357 JLINK_GetNumWPUnits()
T332C 000:444.360 - 0.004ms returns 0x04
T332C 000:450.583 JLINK_GetSpeed()
T332C 000:450.611 - 0.029ms returns 0xFA0
T332C 000:456.127 JLINK_ReadMemU32(0xE000E004, 0x0001 Items, ...)
T332C 000:456.175   CPU_ReadMem(4 bytes @ 0xE000E004)
T332C 000:457.502   Data:  02 00 00 00
T332C 000:457.513 - 1.387ms returns 1
T332C 000:457.519 JLINK_ReadMemU32(0xE000E004, 0x0001 Items, ...)
T332C 000:457.527   CPU_ReadMem(4 bytes @ 0xE000E004)
T332C 000:459.046   Data:  02 00 00 00
T332C 000:459.054 - 1.536ms returns 1
T332C 000:459.059 JLINK_WriteMemEx(0xE0001000, 0x001C Bytes, ..., Flags = 0x02000004)
T332C 000:459.063   Data:  01 00 00 00 00 00 00 00 00 00 00 00 00 00 00 00 ...
T332C 000:459.429   CPU_WriteMem(28 bytes @ 0xE0001000)
T332C 000:461.286 - 2.231ms returns 0x1C
T332C 000:461.299 JLINK_Halt()
T332C 000:461.303 - 0.005ms returns 0x00
T332C 000:461.307 JLINK_IsHalted()
T332C 000:461.312 - 0.006ms returns TRUE
T332C 000:463.878 JLINK_WriteMem(0x20000000, 0x0180 Bytes, ...)
T332C 000:463.886   Data:  00 BE 0A E0 0D 78 2D 06 68 40 08 24 40 00 00 D3 ...
T332C 000:464.198   CPU_WriteMem(384 bytes @ 0x20000000)
T332C 000:470.204 - 6.341ms returns 0x180
T332C 000:470.256 JLINK_WriteReg(R0, 0x08000000)
T332C 000:470.270 - 0.016ms returns 0x00
T332C 000:470.274 JLINK_WriteReg(R1, 0x007A1200)
T332C 000:470.278 - 0.005ms returns 0x00
T332C 000:470.282 JLINK_WriteReg(R2, 0x00000001)
T332C 000:470.286 - 0.005ms returns 0x00
T332C 000:470.290 JLINK_WriteReg(R3, 0x00000000)
T332C 000:470.293 - 0.005ms returns 0x00
T332C 000:470.297 JLINK_WriteReg(R4, 0x00000000)
T332C 000:470.301 - 0.005ms returns 0x00
T332C 000:470.305 JLINK_WriteReg(R5, 0x00000000)
T332C 000:470.309 - 0.005ms returns 0x00
T332C 000:470.313 JLINK_WriteReg(R6, 0x00000000)
T332C 000:470.316 - 0.005ms returns 0x00
T332C 000:470.320 JLINK_WriteReg(R7, 0x00000000)
T332C 000:470.324 - 0.005ms returns 0x00
T332C 000:470.328 JLINK_WriteReg(R8, 0x00000000)
T332C 000:470.332 - 0.005ms returns 0x00
T332C 000:470.336 JLINK_WriteReg(R9, 0x2000017C)
T332C 000:470.339 - 0.005ms returns 0x00
T332C 000:470.343 JLINK_WriteReg(R10, 0x00000000)
T332C 000:470.347 - 0.005ms returns 0x00
T332C 000:470.351 JLINK_WriteReg(R11, 0x00000000)
T332C 000:470.355 - 0.005ms returns 0x00
T332C 000:470.359 JLINK_WriteReg(R12, 0x00000000)
T332C 000:470.363 - 0.005ms returns 0x00
T332C 000:470.367 JLINK_WriteReg(R13 (SP), 0x20001000)
T332C 000:470.371 - 0.006ms returns 0x00
T332C 000:470.375 JLINK_WriteReg(R14, 0x20000001)
T332C 000:470.379 - 0.005ms returns 0x00
T332C 000:470.383 JLINK_WriteReg(R15 (PC), 0x20000054)
T332C 000:470.387 - 0.005ms returns 0x00
T332C 000:470.391 JLINK_WriteReg(XPSR, 0x01000000)
T332C 000:470.395 - 0.005ms returns 0x00
T332C 000:470.399 JLINK_WriteReg(MSP, 0x20001000)
T332C 000:470.402 - 0.005ms returns 0x00
T332C 000:470.406 JLINK_WriteReg(PSP, 0x20001000)
T332C 000:470.410 - 0.005ms returns 0x00
T332C 000:470.414 JLINK_WriteReg(CFBP, 0x00000000)
T332C 000:470.423 - 0.012ms returns 0x00
T332C 000:470.430   JLINK_SetBPEx(Addr = 0x20000000, Type = 0xFFFFFFF2)
T332C 000:470.440   CPU_ReadMem(2 bytes @ 0x20000000)
T332C 000:471.670 - 1.250ms returns 0x00000001
T332C 000:471.685 JLINK_Go()
T332C 000:471.706   CPU_WriteMem(2 bytes @ 0x20000000)
T332C 000:472.652   CPU_ReadMem(4 bytes @ 0xE0001000)
T332C 000:473.669   CPU_WriteMem(4 bytes @ 0xE0002008)
T332C 000:473.677   CPU_WriteMem(4 bytes @ 0xE000200C)
T332C 000:473.682   CPU_WriteMem(4 bytes @ 0xE0002010)
T332C 000:473.687   CPU_WriteMem(4 bytes @ 0xE0002014)
T332C 000:473.692   CPU_WriteMem(4 bytes @ 0xE0002018)
T332C 000:473.696   CPU_WriteMem(4 bytes @ 0xE000201C)
T332C 000:476.890   CPU_WriteMem(4 bytes @ 0xE0001004)
T332C 000:482.183 - 10.505ms
T332C 000:482.198 JLINK_IsHalted()
T332C 000:486.540   CPU_ReadMem(2 bytes @ 0x20000000)
T332C 000:487.389 - 5.196ms returns TRUE
T332C 000:487.403 JLINK_ReadReg(R15 (PC))
T332C 000:487.411 - 0.009ms returns 0x20000000
T332C 000:487.415 JLINK_ClrBPEx(BPHandle = 0x00000001)
T332C 000:487.419 - 0.005ms returns 0x00
T332C 000:487.423 JLINK_ReadReg(R0)
T332C 000:487.427 - 0.005ms returns 0x00000000
T332C 000:487.729 JLINK_WriteReg(R0, 0x08000000)
T332C 000:487.738 - 0.010ms returns 0x00
T332C 000:487.742 JLINK_WriteReg(R1, 0x00004000)
T332C 000:487.746 - 0.005ms returns 0x00
T332C 000:487.750 JLINK_WriteReg(R2, 0x000000FF)
T332C 000:487.753 - 0.005ms returns 0x00
T332C 000:487.757 JLINK_WriteReg(R3, 0x00000000)
T332C 000:487.761 - 0.005ms returns 0x00
T332C 000:487.765 JLINK_WriteReg(R4, 0x00000000)
T332C 000:487.768 - 0.005ms returns 0x00
T332C 000:487.772 JLINK_WriteReg(R5, 0x00000000)
T332C 000:487.775 - 0.005ms returns 0x00
T332C 000:487.779 JLINK_WriteReg(R6, 0x00000000)
T332C 000:487.783 - 0.005ms returns 0x00
T332C 000:487.787 JLINK_WriteReg(R7, 0x00000000)
T332C 000:487.790 - 0.005ms returns 0x00
T332C 000:487.794 JLINK_WriteReg(R8, 0x00000000)
T332C 000:487.798 - 0.005ms returns 0x00
T332C 000:487.801 JLINK_WriteReg(R9, 0x2000017C)
T332C 000:487.805 - 0.005ms returns 0x00
T332C 000:487.809 JLINK_WriteReg(R10, 0x00000000)
T332C 000:487.812 - 0.005ms returns 0x00
T332C 000:487.816 JLINK_WriteReg(R11, 0x00000000)
T332C 000:487.820 - 0.005ms returns 0x00
T332C 000:487.824 JLINK_WriteReg(R12, 0x00000000)
T332C 000:487.827 - 0.005ms returns 0x00
T332C 000:487.831 JLINK_WriteReg(R13 (SP), 0x20001000)
T332C 000:487.835 - 0.005ms returns 0x00
T332C 000:487.839 JLINK_WriteReg(R14, 0x20000001)
T332C 000:487.842 - 0.005ms returns 0x00
T332C 000:487.846 JLINK_WriteReg(R15 (PC), 0x20000020)
T332C 000:487.850 - 0.005ms returns 0x00
T332C 000:487.854 JLINK_WriteReg(XPSR, 0x01000000)
T332C 000:487.857 - 0.005ms returns 0x00
T332C 000:487.861 JLINK_WriteReg(MSP, 0x20001000)
T332C 000:487.865 - 0.005ms returns 0x00
T332C 000:487.869 JLINK_WriteReg(PSP, 0x20001000)
T332C 000:487.872 - 0.005ms returns 0x00
T332C 000:487.876 JLINK_WriteReg(CFBP, 0x00000000)
T332C 000:487.879 - 0.005ms returns 0x00
T332C 000:487.884   JLINK_SetBPEx(Addr = 0x20000000, Type = 0xFFFFFFF2)
T332C 000:487.890 - 0.007ms returns 0x00000002
T332C 000:487.894 JLINK_Go()
T332C 000:487.904   CPU_ReadMem(4 bytes @ 0xE0001000)
T332C 000:493.036 - 5.200ms
T332C 000:493.102 JLINK_IsHalted()
T332C 000:497.409   CPU_ReadMem(2 bytes @ 0x20000000)
T332C 000:498.350 - 5.251ms returns TRUE
T332C 000:498.358 JLINK_ReadReg(R15 (PC))
T332C 000:498.362 - 0.006ms returns 0x20000000
T332C 000:498.366 JLINK_ClrBPEx(BPHandle = 0x00000002)
T332C 000:498.370 - 0.005ms returns 0x00
T332C 000:498.374 JLINK_ReadReg(R0)
T332C 000:498.378 - 0.005ms returns 0x00000001
T332C 000:498.383 JLINK_WriteReg(R0, 0x08000000)
T332C 000:498.387 - 0.005ms returns 0x00
T332C 000:498.391 JLINK_WriteReg(R1, 0x00004000)
T332C 000:498.395 - 0.005ms returns 0x00
T332C 000:498.398 JLINK_WriteReg(R2, 0x000000FF)
T332C 000:498.402 - 0.005ms returns 0x00
T332C 000:498.406 JLINK_WriteReg(R3, 0x00000000)
T332C 000:498.409 - 0.004ms returns 0x00
T332C 000:498.413 JLINK_WriteReg(R4, 0x00000000)
T332C 000:498.469 - 0.060ms returns 0x00
T332C 000:498.477 JLINK_WriteReg(R5, 0x00000000)
T332C 000:498.480 - 0.005ms returns 0x00
T332C 000:498.484 JLINK_WriteReg(R6, 0x00000000)
T332C 000:498.487 - 0.005ms returns 0x00
T332C 000:498.491 JLINK_WriteReg(R7, 0x00000000)
T332C 000:498.495 - 0.004ms returns 0x00
T332C 000:498.499 JLINK_WriteReg(R8, 0x00000000)
T332C 000:498.502 - 0.005ms returns 0x00
T332C 000:498.506 JLINK_WriteReg(R9, 0x2000017C)
T332C 000:498.509 - 0.005ms returns 0x00
T332C 000:498.513 JLINK_WriteReg(R10, 0x00000000)
T332C 000:498.517 - 0.005ms returns 0x00
T332C 000:498.521 JLINK_WriteReg(R11, 0x00000000)
T332C 000:498.524 - 0.005ms returns 0x00
T332C 000:498.528 JLINK_WriteReg(R12, 0x00000000)
T332C 000:498.531 - 0.005ms returns 0x00
T332C 000:498.535 JLINK_WriteReg(R13 (SP), 0x20001000)
T332C 000:498.539 - 0.005ms returns 0x00
T332C 000:498.543 JLINK_WriteReg(R14, 0x20000001)
T332C 000:498.546 - 0.005ms returns 0x00
T332C 000:498.550 JLINK_WriteReg(R15 (PC), 0x200000BC)
T332C 000:498.554 - 0.005ms returns 0x00
T332C 000:498.558 JLINK_WriteReg(XPSR, 0x01000000)
T332C 000:498.561 - 0.005ms returns 0x00
T332C 000:498.565 JLINK_WriteReg(MSP, 0x20001000)
T332C 000:498.569 - 0.005ms returns 0x00
T332C 000:498.572 JLINK_WriteReg(PSP, 0x20001000)
T332C 000:498.576 - 0.005ms returns 0x00
T332C 000:498.580 JLINK_WriteReg(CFBP, 0x00000000)
T332C 000:498.583 - 0.004ms returns 0x00
T332C 000:498.588   JLINK_SetBPEx(Addr = 0x20000000, Type = 0xFFFFFFF2)
T332C 000:498.593 - 0.007ms returns 0x00000003
T332C 000:498.597 JLINK_Go()
T332C 000:498.604   CPU_ReadMem(4 bytes @ 0xE0001000)
T332C 000:503.473 - 4.888ms
T332C 000:503.490 JLINK_IsHalted()
T332C 000:504.165 - 0.680ms returns FALSE
T332C 000:519.102 JLINK_IsHalted()
T332C 000:519.991 - 0.912ms returns FALSE
T332C 000:523.447 JLINK_IsHalted()
T332C 000:524.992 - 1.551ms returns FALSE
T332C 000:526.801 JLINK_IsHalted()
T332C 000:528.433 - 1.668ms returns FALSE
T332C 000:529.656 JLINK_IsHalted()
T332C 000:531.276 - 1.651ms returns FALSE
T332C 000:532.804 JLINK_IsHalted()
T332C 000:533.849 - 1.065ms returns FALSE
T332C 000:535.137 JLINK_IsHalted()
T332C 000:536.477 - 1.373ms returns FALSE
T332C 000:540.189 JLINK_IsHalted()
T332C 000:541.768 - 1.611ms returns FALSE
T332C 000:543.618 JLINK_IsHalted()
T332C 000:545.046 - 1.445ms returns FALSE
T332C 000:547.684 JLINK_IsHalted()
T332C 000:549.646 - 2.001ms returns FALSE
T332C 000:554.530 JLINK_IsHalted()
T332C 000:556.493 - 1.980ms returns FALSE
T332C 000:558.560 JLINK_IsHalted()
T332C 000:559.515 - 0.980ms returns FALSE
T332C 000:561.381 JLINK_IsHalted()
T332C 000:562.340 - 0.984ms returns FALSE
T332C 000:563.585 JLINK_IsHalted()
T332C 000:565.549 - 2.012ms returns FALSE
T332C 000:570.256 JLINK_IsHalted()
T332C 000:571.776 - 1.538ms returns FALSE
T332C 000:573.608 JLINK_IsHalted()
T332C 000:575.567 - 1.981ms returns FALSE
T332C 000:577.519 JLINK_IsHalted()
T332C 000:579.436 - 1.935ms returns FALSE
T332C 000:580.610 JLINK_IsHalted()
T332C 000:581.576 - 0.982ms returns FALSE
T332C 000:587.622 JLINK_IsHalted()
T332C 000:589.256 - 1.651ms returns FALSE
T332C 000:590.602 JLINK_IsHalted()
T332C 000:591.585 - 1.000ms returns FALSE
T332C 000:593.392 JLINK_IsHalted()
T332C 000:594.367 - 0.990ms returns FALSE
T332C 000:595.570 JLINK_IsHalted()
T332C 000:597.076 - 1.526ms returns FALSE
T332C 000:601.126 JLINK_IsHalted()
T332C 000:602.118 - 1.007ms returns FALSE
T332C 000:604.713 JLINK_IsHalted()
T332C 000:606.625 - 1.933ms returns FALSE
T332C 000:608.230 JLINK_IsHalted()
T332C 000:609.232 - 1.019ms returns FALSE
T332C 000:610.698 JLINK_IsHalted()
T332C 000:611.788 - 1.108ms returns FALSE
T332C 000:619.406 JLINK_IsHalted()
T332C 000:620.357 - 0.957ms returns FALSE
T332C 000:622.093 JLINK_IsHalted()
T332C 000:622.933 - 0.844ms returns FALSE
T332C 000:626.201 JLINK_IsHalted()
T332C 000:627.944 - 1.800ms returns FALSE
T332C 000:635.192 JLINK_IsHalted()
T332C 000:636.101 - 0.913ms returns FALSE
T332C 000:638.200 JLINK_IsHalted()
T332C 000:639.272 - 1.080ms returns FALSE
T332C 000:642.275 JLINK_IsHalted()
T332C 000:643.337 - 1.068ms returns FALSE
T332C 000:649.231 JLINK_IsHalted()
T332C 000:650.133 - 0.911ms returns FALSE
T332C 000:652.209 JLINK_IsHalted()
T332C 000:653.305 - 1.102ms returns FALSE
T332C 000:656.203 JLINK_IsHalted()
T332C 000:657.016 - 0.818ms returns FALSE
T332C 000:658.195 JLINK_IsHalted()
T332C 000:659.271 - 1.091ms returns FALSE
T332C 000:669.143 JLINK_IsHalted()
T332C 000:670.061 - 0.924ms returns FALSE
T332C 000:672.174 JLINK_IsHalted()
T332C 000:673.097 - 0.932ms returns FALSE
T332C 000:676.162 JLINK_IsHalted()
T332C 000:676.968 - 0.813ms returns FALSE
T332C 000:683.136 JLINK_IsHalted()
T332C 000:684.124 - 0.995ms returns FALSE
T332C 000:686.163 JLINK_IsHalted()
T332C 000:687.089 - 0.934ms returns FALSE
T332C 000:690.761 JLINK_IsHalted()
T332C 000:691.853 - 1.111ms returns FALSE
T332C 000:699.392 JLINK_IsHalted()
T332C 000:700.273 - 0.889ms returns FALSE
T332C 000:703.182 JLINK_IsHalted()
T332C 000:704.276 - 1.098ms returns FALSE
T332C 000:706.544 JLINK_IsHalted()
T332C 000:707.673 - 1.148ms returns FALSE
T332C 000:713.276 JLINK_IsHalted()
T332C 000:714.123 - 0.856ms returns FALSE
T332C 000:717.189 JLINK_IsHalted()
T332C 000:718.621 - 1.454ms returns FALSE
T332C 000:720.538 JLINK_IsHalted()
T332C 000:721.619 - 1.138ms returns FALSE
T332C 000:723.149 JLINK_IsHalted()
T332C 000:724.319 - 1.190ms returns FALSE
T332C 000:731.468 JLINK_IsHalted()
T332C 000:732.390 - 0.935ms returns FALSE
T332C 000:734.157 JLINK_IsHalted()
T332C 000:735.919 - 1.779ms returns FALSE
T332C 000:737.427 JLINK_IsHalted()
T332C 000:738.371 - 0.961ms returns FALSE
T332C 000:743.199 JLINK_IsHalted()
T332C 000:744.944 - 1.764ms returns FALSE
T332C 000:746.450 JLINK_IsHalted()
T332C 000:748.146 - 1.714ms returns FALSE
T332C 000:749.554 JLINK_IsHalted()
T332C 000:751.030 - 1.499ms returns FALSE
T332C 000:753.683 JLINK_IsHalted()
T332C 000:754.728 - 1.062ms returns FALSE
T332C 000:759.220 JLINK_IsHalted()
T332C 000:760.973 - 1.782ms returns FALSE
T332C 000:762.772 JLINK_IsHalted()
T332C 000:764.463 - 1.714ms returns FALSE
T332C 000:765.628 JLINK_IsHalted()
T332C 000:767.318 - 1.711ms returns FALSE
T332C 000:768.717 JLINK_IsHalted()
T332C 000:769.788 - 1.090ms returns FALSE
T332C 000:776.719 JLINK_IsHalted()
T332C 000:778.393 - 1.708ms returns FALSE
T332C 000:779.707 JLINK_IsHalted()
T332C 000:781.294 - 1.640ms returns FALSE
T332C 000:782.576 JLINK_IsHalted()
T332C 000:783.785 - 1.223ms returns FALSE
T332C 000:785.805 JLINK_IsHalted()
T332C 000:786.913 - 1.160ms returns FALSE
T332C 000:791.167 JLINK_IsHalted()
T332C 000:792.051 - 0.891ms returns FALSE
T332C 000:793.718 JLINK_IsHalted()
T332C 000:795.380 - 1.698ms returns FALSE
T332C 000:796.706 JLINK_IsHalted()
T332C 000:798.393 - 1.708ms returns FALSE
T332C 000:799.796 JLINK_IsHalted()
T332C 000:800.892 - 1.118ms returns FALSE
T332C 000:802.120 JLINK_IsHalted()
T332C 000:803.153 - 1.040ms returns FALSE
T332C 000:808.591 JLINK_IsHalted()
T332C 000:810.553 - 1.983ms returns FALSE
T332C 000:812.603 JLINK_IsHalted()
T332C 000:814.642 - 2.061ms returns FALSE
T332C 000:816.632 JLINK_IsHalted()
T332C 000:817.680 - 1.067ms returns FALSE
T332C 000:822.097 JLINK_IsHalted()
T332C 000:823.716 - 1.645ms returns FALSE
T332C 000:825.626 JLINK_IsHalted()
T332C 000:827.660 - 2.056ms returns FALSE
T332C 000:829.585 JLINK_IsHalted()
T332C 000:831.163 - 1.621ms returns FALSE
T332C 000:832.695 JLINK_IsHalted()
T332C 000:833.763 - 1.086ms returns FALSE
T332C 000:838.468 JLINK_IsHalted()
T332C 000:839.943 - 1.481ms returns FALSE
T332C 000:841.227 JLINK_IsHalted()
T332C 000:842.110 - 0.889ms returns FALSE
T332C 000:843.405 JLINK_IsHalted()
T332C 000:845.489 - 2.112ms returns FALSE
T332C 000:847.175 JLINK_IsHalted()
T332C 000:848.767 - 1.651ms returns FALSE
T332C 000:854.529 JLINK_IsHalted()
T332C 000:855.417 - 0.895ms returns FALSE
T332C 000:856.522 JLINK_IsHalted()
T332C 000:857.407 - 0.891ms returns FALSE
T332C 000:858.506 JLINK_IsHalted()
T332C 000:859.948 - 1.473ms returns FALSE
T332C 000:861.954 JLINK_IsHalted()
T332C 000:863.827 - 1.890ms returns FALSE
T332C 000:864.926 JLINK_IsHalted()
T332C 000:866.291 - 1.382ms returns FALSE
T332C 000:870.052 JLINK_IsHalted()
T332C 000:874.297   CPU_ReadMem(2 bytes @ 0x20000000)
T332C 000:876.235 - 6.200ms returns TRUE
T332C 000:876.266 JLINK_ReadReg(R15 (PC))
T332C 000:876.275 - 0.011ms returns 0x20000000
T332C 000:876.280 JLINK_ClrBPEx(BPHandle = 0x00000003)
T332C 000:876.284 - 0.006ms returns 0x00
T332C 000:876.314 JLINK_ReadReg(R0)
T332C 000:876.318 - 0.006ms returns 0x00000000
T332C 000:876.716 JLINK_WriteReg(R0, 0x00000001)
T332C 000:876.733 - 0.018ms returns 0x00
T332C 000:876.737 JLINK_WriteReg(R1, 0x00004000)
T332C 000:876.741 - 0.005ms returns 0x00
T332C 000:876.745 JLINK_WriteReg(R2, 0x000000FF)
T332C 000:876.749 - 0.005ms returns 0x00
T332C 000:876.753 JLINK_WriteReg(R3, 0x00000000)
T332C 000:876.756 - 0.005ms returns 0x00
T332C 000:876.760 JLINK_WriteReg(R4, 0x00000000)
T332C 000:876.763 - 0.004ms returns 0x00
T332C 000:876.767 JLINK_WriteReg(R5, 0x00000000)
T332C 000:876.771 - 0.005ms returns 0x00
T332C 000:876.774 JLINK_WriteReg(R6, 0x00000000)
T332C 000:876.778 - 0.005ms returns 0x00
T332C 000:876.782 JLINK_WriteReg(R7, 0x00000000)
T332C 000:876.785 - 0.005ms returns 0x00
T332C 000:876.789 JLINK_WriteReg(R8, 0x00000000)
T332C 000:876.793 - 0.005ms returns 0x00
T332C 000:876.796 JLINK_WriteReg(R9, 0x2000017C)
T332C 000:876.800 - 0.005ms returns 0x00
T332C 000:876.804 JLINK_WriteReg(R10, 0x00000000)
T332C 000:876.807 - 0.005ms returns 0x00
T332C 000:876.811 JLINK_WriteReg(R11, 0x00000000)
T332C 000:876.815 - 0.005ms returns 0x00
T332C 000:876.819 JLINK_WriteReg(R12, 0x00000000)
T332C 000:876.822 - 0.005ms returns 0x00
T332C 000:876.826 JLINK_WriteReg(R13 (SP), 0x20001000)
T332C 000:876.830 - 0.005ms returns 0x00
T332C 000:876.834 JLINK_WriteReg(R14, 0x20000001)
T332C 000:876.837 - 0.005ms returns 0x00
T332C 000:876.841 JLINK_WriteReg(R15 (PC), 0x20000082)
T332C 000:876.845 - 0.005ms returns 0x00
T332C 000:876.849 JLINK_WriteReg(XPSR, 0x01000000)
T332C 000:876.852 - 0.005ms returns 0x00
T332C 000:876.856 JLINK_WriteReg(MSP, 0x20001000)
T332C 000:876.860 - 0.005ms returns 0x00
T332C 000:876.863 JLINK_WriteReg(PSP, 0x20001000)
T332C 000:876.867 - 0.005ms returns 0x00
T332C 000:876.871 JLINK_WriteReg(CFBP, 0x00000000)
T332C 000:876.874 - 0.005ms returns 0x00
T332C 000:876.879   JLINK_SetBPEx(Addr = 0x20000000, Type = 0xFFFFFFF2)
T332C 000:876.885 - 0.008ms returns 0x00000004
T332C 000:876.889 JLINK_Go()
T332C 000:876.901   CPU_ReadMem(4 bytes @ 0xE0001000)
T332C 000:882.971 - 6.120ms
T332C 000:883.020 JLINK_IsHalted()
T332C 000:887.040   CPU_ReadMem(2 bytes @ 0x20000000)
T332C 000:887.936 - 4.940ms returns TRUE
T332C 000:887.966 JLINK_ReadReg(R15 (PC))
T332C 000:887.973 - 0.008ms returns 0x20000000
T332C 000:887.978 JLINK_ClrBPEx(BPHandle = 0x00000004)
T332C 000:887.982 - 0.006ms returns 0x00
T332C 000:887.986 JLINK_ReadReg(R0)
T332C 000:887.990 - 0.005ms returns 0x00000000
T332C 000:945.945 JLINK_WriteMem(0x20000000, 0x0180 Bytes, ...)
T332C 000:945.959   Data:  00 BE 0A E0 0D 78 2D 06 68 40 08 24 40 00 00 D3 ...
T332C 000:945.980   CPU_WriteMem(384 bytes @ 0x20000000)
T332C 000:951.314 - 5.413ms returns 0x180
T332C 000:951.425 JLINK_WriteReg(R0, 0x08000000)
T332C 000:951.436 - 0.013ms returns 0x00
T332C 000:951.440 JLINK_WriteReg(R1, 0x007A1200)
T332C 000:951.444 - 0.005ms returns 0x00
T332C 000:951.448 JLINK_WriteReg(R2, 0x00000002)
T332C 000:951.451 - 0.005ms returns 0x00
T332C 000:951.455 JLINK_WriteReg(R3, 0x00000000)
T332C 000:951.459 - 0.005ms returns 0x00
T332C 000:951.463 JLINK_WriteReg(R4, 0x00000000)
T332C 000:951.466 - 0.005ms returns 0x00
T332C 000:951.470 JLINK_WriteReg(R5, 0x00000000)
T332C 000:951.474 - 0.005ms returns 0x00
T332C 000:951.477 JLINK_WriteReg(R6, 0x00000000)
T332C 000:951.482 - 0.006ms returns 0x00
T332C 000:951.486 JLINK_WriteReg(R7, 0x00000000)
T332C 000:951.489 - 0.005ms returns 0x00
T332C 000:951.500 JLINK_WriteReg(R8, 0x00000000)
T332C 000:951.509 - 0.010ms returns 0x00
T332C 000:951.513 JLINK_WriteReg(R9, 0x2000017C)
T332C 000:951.517 - 0.005ms returns 0x00
T332C 000:951.520 JLINK_WriteReg(R10, 0x00000000)
T332C 000:951.524 - 0.005ms returns 0x00
T332C 000:951.528 JLINK_WriteReg(R11, 0x00000000)
T332C 000:951.531 - 0.005ms returns 0x00
T332C 000:951.535 JLINK_WriteReg(R12, 0x00000000)
T332C 000:951.539 - 0.005ms returns 0x00
T332C 000:951.543 JLINK_WriteReg(R13 (SP), 0x20001000)
T332C 000:951.548 - 0.006ms returns 0x00
T332C 000:951.552 JLINK_WriteReg(R14, 0x20000001)
T332C 000:951.555 - 0.005ms returns 0x00
T332C 000:951.559 JLINK_WriteReg(R15 (PC), 0x20000054)
T332C 000:951.584 - 0.026ms returns 0x00
T332C 000:951.588 JLINK_WriteReg(XPSR, 0x01000000)
T332C 000:951.592 - 0.005ms returns 0x00
T332C 000:951.596 JLINK_WriteReg(MSP, 0x20001000)
T332C 000:951.600 - 0.005ms returns 0x00
T332C 000:951.604 JLINK_WriteReg(PSP, 0x20001000)
T332C 000:951.608 - 0.005ms returns 0x00
T332C 000:951.612 JLINK_WriteReg(CFBP, 0x00000000)
T332C 000:951.616 - 0.005ms returns 0x00
T332C 000:951.621   JLINK_SetBPEx(Addr = 0x20000000, Type = 0xFFFFFFF2)
T332C 000:951.650   CPU_ReadMem(2 bytes @ 0x20000000)
T332C 000:952.567 - 0.953ms returns 0x00000005
T332C 000:952.578 JLINK_Go()
T332C 000:952.586   CPU_WriteMem(2 bytes @ 0x20000000)
T332C 000:953.474   CPU_ReadMem(4 bytes @ 0xE0001000)
T332C 000:958.323 - 5.773ms
T332C 000:958.361 JLINK_IsHalted()
T332C 000:962.456   CPU_ReadMem(2 bytes @ 0x20000000)
T332C 000:963.304 - 4.948ms returns TRUE
T332C 000:963.319 JLINK_ReadReg(R15 (PC))
T332C 000:963.326 - 0.027ms returns 0x20000000
T332C 000:963.349 JLINK_ClrBPEx(BPHandle = 0x00000005)
T332C 000:963.354 - 0.006ms returns 0x00
T332C 000:963.476 JLINK_ReadReg(R0)
T332C 000:963.486 - 0.013ms returns 0x00000000
T332C 000:963.771 JLINK_WriteMem(0x20000180, 0x0280 Bytes, ...)
T332C 000:963.779   Data:  10 0A 00 20 69 02 00 08 3D 1C 00 08 F1 16 00 08 ...
T332C 000:963.792   CPU_WriteMem(640 bytes @ 0x20000180)
T332C 000:972.148 - 8.395ms returns 0x280
T332C 000:972.176 JLINK_WriteMem(0x20000400, 0x0180 Bytes, ...)
T332C 000:972.180   Data:  FE E7 FE E7 04 48 05 49 05 4A 06 4B 70 47 00 00 ...
T332C 000:972.200   CPU_WriteMem(384 bytes @ 0x20000400)
T332C 000:977.780 - 5.624ms returns 0x180
T332C 000:977.813 JLINK_WriteReg(R0, 0x08000000)
T332C 000:977.823 - 0.012ms returns 0x00
T332C 000:977.827 JLINK_WriteReg(R1, 0x00000400)
T332C 000:977.831 - 0.005ms returns 0x00
T332C 000:977.835 JLINK_WriteReg(R2, 0x20000180)
T332C 000:977.839 - 0.005ms returns 0x00
T332C 000:977.843 JLINK_WriteReg(R3, 0x00000000)
T332C 000:977.846 - 0.005ms returns 0x00
T332C 000:977.850 JLINK_WriteReg(R4, 0x00000000)
T332C 000:977.854 - 0.005ms returns 0x00
T332C 000:977.857 JLINK_WriteReg(R5, 0x00000000)
T332C 000:977.861 - 0.005ms returns 0x00
T332C 000:977.865 JLINK_WriteReg(R6, 0x00000000)
T332C 000:977.868 - 0.005ms returns 0x00
T332C 000:977.872 JLINK_WriteReg(R7, 0x00000000)
T332C 000:977.875 - 0.005ms returns 0x00
T332C 000:977.879 JLINK_WriteReg(R8, 0x00000000)
T332C 000:977.883 - 0.005ms returns 0x00
T332C 000:977.887 JLINK_WriteReg(R9, 0x2000017C)
T332C 000:977.890 - 0.005ms returns 0x00
T332C 000:977.894 JLINK_WriteReg(R10, 0x00000000)
T332C 000:977.897 - 0.005ms returns 0x00
T332C 000:977.901 JLINK_WriteReg(R11, 0x00000000)
T332C 000:977.905 - 0.005ms returns 0x00
T332C 000:977.909 JLINK_WriteReg(R12, 0x00000000)
T332C 000:977.912 - 0.005ms returns 0x00
T332C 000:977.916 JLINK_WriteReg(R13 (SP), 0x20001000)
T332C 000:977.920 - 0.005ms returns 0x00
T332C 000:977.924 JLINK_WriteReg(R14, 0x20000001)
T332C 000:977.928 - 0.005ms returns 0x00
T332C 000:977.934 JLINK_WriteReg(R15 (PC), 0x20000108)
T332C 000:977.938 - 0.005ms returns 0x00
T332C 000:977.961 JLINK_WriteReg(XPSR, 0x01000000)
T332C 000:977.965 - 0.005ms returns 0x00
T332C 000:977.969 JLINK_WriteReg(MSP, 0x20001000)
T332C 000:977.972 - 0.005ms returns 0x00
T332C 000:977.976 JLINK_WriteReg(PSP, 0x20001000)
T332C 000:977.986 - 0.014ms returns 0x00
T332C 000:977.994 JLINK_WriteReg(CFBP, 0x00000000)
T332C 000:977.998 - 0.005ms returns 0x00
T332C 000:978.003   JLINK_SetBPEx(Addr = 0x20000000, Type = 0xFFFFFFF2)
T332C 000:978.009 - 0.009ms returns 0x00000006
T332C 000:978.014 JLINK_Go()
T332C 000:978.040   CPU_ReadMem(4 bytes @ 0xE0001000)
T332C 000:982.951 - 4.945ms
T332C 000:982.964 JLINK_IsHalted()
T332C 000:983.769 - 0.813ms returns FALSE
T332C 000:991.068 JLINK_IsHalted()
T332C 000:995.561   CPU_ReadMem(2 bytes @ 0x20000000)
T332C 000:997.126 - 6.080ms returns TRUE
T332C 000:997.158 JLINK_ReadReg(R15 (PC))
T332C 000:997.167 - 0.011ms returns 0x20000000
T332C 000:997.172 JLINK_ClrBPEx(BPHandle = 0x00000006)
T332C 000:997.176 - 0.005ms returns 0x00
T332C 000:997.181 JLINK_ReadReg(R0)
T332C 000:997.184 - 0.005ms returns 0x00000000
T332C 000:997.715 JLINK_WriteMem(0x20000180, 0x0280 Bytes, ...)
T332C 000:997.729   Data:  18 B0 20 B5 FF F7 3E FF BD E8 20 40 4F F0 00 06 ...
T332C 000:997.746   CPU_WriteMem(640 bytes @ 0x20000180)
T332C 001:006.156 - 8.499ms returns 0x280
T332C 001:006.238 JLINK_WriteMem(0x20000400, 0x0180 Bytes, ...)
T332C 001:006.244   Data:  02 00 01 68 41 F4 00 71 01 60 01 68 41 F4 80 61 ...
T332C 001:006.283   CPU_WriteMem(384 bytes @ 0x20000400)
T332C 001:011.788 - 5.563ms returns 0x180
T332C 001:011.810 JLINK_WriteReg(R0, 0x08000400)
T332C 001:011.819 - 0.011ms returns 0x00
T332C 001:011.823 JLINK_WriteReg(R1, 0x00000400)
T332C 001:011.827 - 0.005ms returns 0x00
T332C 001:011.831 JLINK_WriteReg(R2, 0x20000180)
T332C 001:011.834 - 0.005ms returns 0x00
T332C 001:011.838 JLINK_WriteReg(R3, 0x00000000)
T332C 001:011.841 - 0.005ms returns 0x00
T332C 001:011.845 JLINK_WriteReg(R4, 0x00000000)
T332C 001:011.849 - 0.005ms returns 0x00
T332C 001:011.853 JLINK_WriteReg(R5, 0x00000000)
T332C 001:011.856 - 0.023ms returns 0x00
T332C 001:011.878 JLINK_WriteReg(R6, 0x00000000)
T332C 001:011.882 - 0.005ms returns 0x00
T332C 001:011.886 JLINK_WriteReg(R7, 0x00000000)
T332C 001:011.890 - 0.005ms returns 0x00
T332C 001:011.894 JLINK_WriteReg(R8, 0x00000000)
T332C 001:011.897 - 0.005ms returns 0x00
T332C 001:011.901 JLINK_WriteReg(R9, 0x2000017C)
T332C 001:011.905 - 0.005ms returns 0x00
T332C 001:011.909 JLINK_WriteReg(R10, 0x00000000)
T332C 001:011.926 - 0.018ms returns 0x00
T332C 001:011.930 JLINK_WriteReg(R11, 0x00000000)
T332C 001:011.936 - 0.008ms returns 0x00
T332C 001:011.940 JLINK_WriteReg(R12, 0x00000000)
T332C 001:011.944 - 0.005ms returns 0x00
T332C 001:011.948 JLINK_WriteReg(R13 (SP), 0x20001000)
T332C 001:011.952 - 0.006ms returns 0x00
T332C 001:011.956 JLINK_WriteReg(R14, 0x20000001)
T332C 001:011.959 - 0.005ms returns 0x00
T332C 001:011.963 JLINK_WriteReg(R15 (PC), 0x20000108)
T332C 001:011.967 - 0.005ms returns 0x00
T332C 001:011.971 JLINK_WriteReg(XPSR, 0x01000000)
T332C 001:011.974 - 0.005ms returns 0x00
T332C 001:011.978 JLINK_WriteReg(MSP, 0x20001000)
T332C 001:011.982 - 0.005ms returns 0x00
T332C 001:011.985 JLINK_WriteReg(PSP, 0x20001000)
T332C 001:011.989 - 0.005ms returns 0x00
T332C 001:011.993 JLINK_WriteReg(CFBP, 0x00000000)
T332C 001:011.996 - 0.005ms returns 0x00
T332C 001:012.001   JLINK_SetBPEx(Addr = 0x20000000, Type = 0xFFFFFFF2)
T332C 001:012.007 - 0.008ms returns 0x00000007
T332C 001:012.011 JLINK_Go()
T332C 001:012.022   CPU_ReadMem(4 bytes @ 0xE0001000)
T332C 001:016.727 - 4.731ms
T332C 001:016.754 JLINK_IsHalted()
T332C 001:017.593 - 0.861ms returns FALSE
T332C 001:021.961 JLINK_IsHalted()
T332C 001:026.148   CPU_ReadMem(2 bytes @ 0x20000000)
T332C 001:027.040 - 5.085ms returns TRUE
T332C 001:027.051 JLINK_ReadReg(R15 (PC))
T332C 001:027.058 - 0.008ms returns 0x20000000
T332C 001:027.063 JLINK_ClrBPEx(BPHandle = 0x00000007)
T332C 001:027.067 - 0.006ms returns 0x00
T332C 001:027.072 JLINK_ReadReg(R0)
T332C 001:027.076 - 0.005ms returns 0x00000000
T332C 001:027.487 JLINK_WriteMem(0x20000180, 0x0280 Bytes, ...)
T332C 001:027.495   Data:  11 43 C8 F8 00 10 00 07 08 D5 D8 F8 00 00 21 69 ...
T332C 001:027.506   CPU_WriteMem(640 bytes @ 0x20000180)
T332C 001:035.881 - 8.415ms returns 0x280
T332C 001:035.913 JLINK_WriteMem(0x20000400, 0x0180 Bytes, ...)
T332C 001:035.918   Data:  02 B0 BD E8 F0 81 60 69 00 28 40 F2 00 00 C4 F2 ...
T332C 001:035.941   CPU_WriteMem(384 bytes @ 0x20000400)
T332C 001:042.212 - 6.318ms returns 0x180
T332C 001:042.246 JLINK_WriteReg(R0, 0x08000800)
T332C 001:042.277 - 0.032ms returns 0x00
T332C 001:042.283 JLINK_WriteReg(R1, 0x00000400)
T332C 001:042.287 - 0.005ms returns 0x00
T332C 001:042.397 JLINK_WriteReg(R2, 0x20000180)
T332C 001:042.408 - 0.012ms returns 0x00
T332C 001:042.413 JLINK_WriteReg(R3, 0x00000000)
T332C 001:042.417 - 0.005ms returns 0x00
T332C 001:042.421 JLINK_WriteReg(R4, 0x00000000)
T332C 001:042.424 - 0.005ms returns 0x00
T332C 001:042.428 JLINK_WriteReg(R5, 0x00000000)
T332C 001:042.432 - 0.005ms returns 0x00
T332C 001:042.435 JLINK_WriteReg(R6, 0x00000000)
T332C 001:042.439 - 0.005ms returns 0x00
T332C 001:042.443 JLINK_WriteReg(R7, 0x00000000)
T332C 001:042.446 - 0.005ms returns 0x00
T332C 001:042.450 JLINK_WriteReg(R8, 0x00000000)
T332C 001:042.454 - 0.005ms returns 0x00
T332C 001:042.458 JLINK_WriteReg(R9, 0x2000017C)
T332C 001:042.461 - 0.005ms returns 0x00
T332C 001:042.465 JLINK_WriteReg(R10, 0x00000000)
T332C 001:042.468 - 0.005ms returns 0x00
T332C 001:042.472 JLINK_WriteReg(R11, 0x00000000)
T332C 001:042.476 - 0.005ms returns 0x00
T332C 001:042.480 JLINK_WriteReg(R12, 0x00000000)
T332C 001:042.483 - 0.005ms returns 0x00
T332C 001:042.487 JLINK_WriteReg(R13 (SP), 0x20001000)
T332C 001:042.491 - 0.006ms returns 0x00
T332C 001:042.495 JLINK_WriteReg(R14, 0x20000001)
T332C 001:042.499 - 0.005ms returns 0x00
T332C 001:042.502 JLINK_WriteReg(R15 (PC), 0x20000108)
T332C 001:042.506 - 0.005ms returns 0x00
T332C 001:042.510 JLINK_WriteReg(XPSR, 0x01000000)
T332C 001:042.513 - 0.005ms returns 0x00
T332C 001:042.517 JLINK_WriteReg(MSP, 0x20001000)
T332C 001:042.521 - 0.005ms returns 0x00
T332C 001:042.525 JLINK_WriteReg(PSP, 0x20001000)
T332C 001:042.528 - 0.005ms returns 0x00
T332C 001:042.532 JLINK_WriteReg(CFBP, 0x00000000)
T332C 001:042.535 - 0.005ms returns 0x00
T332C 001:042.540   JLINK_SetBPEx(Addr = 0x20000000, Type = 0xFFFFFFF2)
T332C 001:042.547 - 0.008ms returns 0x00000008
T332C 001:042.551 JLINK_Go()
T332C 001:042.564   CPU_ReadMem(4 bytes @ 0xE0001000)
T332C 001:047.242 - 4.697ms
T332C 001:047.252 JLINK_IsHalted()
T332C 001:048.047 - 0.800ms returns FALSE
T332C 001:053.277 JLINK_IsHalted()
T332C 001:058.721   CPU_ReadMem(2 bytes @ 0x20000000)
T332C 001:060.436 - 7.181ms returns TRUE
T332C 001:060.467 JLINK_ReadReg(R15 (PC))
T332C 001:060.478 - 0.012ms returns 0x20000000
T332C 001:060.483 JLINK_ClrBPEx(BPHandle = 0x00000008)
T332C 001:060.487 - 0.006ms returns 0x00
T332C 001:060.492 JLINK_ReadReg(R0)
T332C 001:060.496 - 0.005ms returns 0x00000000
T332C 001:061.056 JLINK_WriteMem(0x20000180, 0x0280 Bytes, ...)
T332C 001:061.076   Data:  B8 42 F7 D9 03 20 02 B0 BD E8 F0 81 FF F7 20 FD ...
T332C 001:061.099   CPU_WriteMem(640 bytes @ 0x20000180)
T332C 001:069.496 - 8.462ms returns 0x280
T332C 001:069.533 JLINK_WriteMem(0x20000400, 0x0180 Bytes, ...)
T332C 001:069.539   Data:  41 F0 01 01 01 60 00 68 00 21 00 F0 01 00 01 90 ...
T332C 001:069.560   CPU_WriteMem(384 bytes @ 0x20000400)
T332C 001:075.436 - 5.950ms returns 0x180
T332C 001:075.540 JLINK_WriteReg(R0, 0x08000C00)
T332C 001:075.577 - 0.047ms returns 0x00
T332C 001:075.597 JLINK_WriteReg(R1, 0x00000400)
T332C 001:075.615 - 0.026ms returns 0x00
T332C 001:075.644 JLINK_WriteReg(R2, 0x20000180)
T332C 001:075.662 - 0.025ms returns 0x00
T332C 001:075.680 JLINK_WriteReg(R3, 0x00000000)
T332C 001:075.695 - 0.022ms returns 0x00
T332C 001:075.719 JLINK_WriteReg(R4, 0x00000000)
T332C 001:075.736 - 0.024ms returns 0x00
T332C 001:075.754 JLINK_WriteReg(R5, 0x00000000)
T332C 001:075.770 - 0.023ms returns 0x00
T332C 001:075.788 JLINK_WriteReg(R6, 0x00000000)
T332C 001:075.805 - 0.024ms returns 0x00
T332C 001:075.831 JLINK_WriteReg(R7, 0x00000000)
T332C 001:075.863 - 0.049ms returns 0x00
T332C 001:075.898 JLINK_WriteReg(R8, 0x00000000)
T332C 001:075.916 - 0.025ms returns 0x00
T332C 001:075.934 JLINK_WriteReg(R9, 0x2000017C)
T332C 001:075.950 - 0.023ms returns 0x00
T332C 001:075.968 JLINK_WriteReg(R10, 0x00000000)
T332C 001:075.985 - 0.025ms returns 0x00
T332C 001:076.026 JLINK_WriteReg(R11, 0x00000000)
T332C 001:076.046 - 0.027ms returns 0x00
T332C 001:076.074 JLINK_WriteReg(R12, 0x00000000)
T332C 001:076.095 - 0.030ms returns 0x00
T332C 001:076.116 JLINK_WriteReg(R13 (SP), 0x20001000)
T332C 001:076.139 - 0.032ms returns 0x00
T332C 001:076.168 JLINK_WriteReg(R14, 0x20000001)
T332C 001:076.188 - 0.027ms returns 0x00
T332C 001:076.206 JLINK_WriteReg(R15 (PC), 0x20000108)
T332C 001:076.222 - 0.023ms returns 0x00
T332C 001:076.245 JLINK_WriteReg(XPSR, 0x01000000)
T332C 001:076.263 - 0.024ms returns 0x00
T332C 001:076.280 JLINK_WriteReg(MSP, 0x20001000)
T332C 001:076.296 - 0.024ms returns 0x00
T332C 001:076.315 JLINK_WriteReg(PSP, 0x20001000)
T332C 001:076.332 - 0.024ms returns 0x00
T332C 001:076.358 JLINK_WriteReg(CFBP, 0x00000000)
T332C 001:076.375 - 0.025ms returns 0x00
T332C 001:076.404   JLINK_SetBPEx(Addr = 0x20000000, Type = 0xFFFFFFF2)
T332C 001:076.431 - 0.037ms returns 0x00000009
T332C 001:076.457 JLINK_Go()
T332C 001:076.503   CPU_ReadMem(4 bytes @ 0xE0001000)
T332C 001:082.952 - 6.554ms
T332C 001:083.056 JLINK_IsHalted()
T332C 001:084.145 - 1.127ms returns FALSE
T332C 001:093.148 JLINK_IsHalted()
T332C 001:097.261   CPU_ReadMem(2 bytes @ 0x20000000)
T332C 001:098.110 - 4.967ms returns TRUE
T332C 001:098.121 JLINK_ReadReg(R15 (PC))
T332C 001:098.127 - 0.008ms returns 0x20000000
T332C 001:098.131 JLINK_ClrBPEx(BPHandle = 0x00000009)
T332C 001:098.135 - 0.005ms returns 0x00
T332C 001:098.140 JLINK_ReadReg(R0)
T332C 001:098.143 - 0.005ms returns 0x00000000
T332C 001:098.517 JLINK_WriteMem(0x20000180, 0x0280 Bytes, ...)
T332C 001:098.524   Data:  61 46 00 F0 CD FF 20 68 81 68 41 F0 77 01 1A E0 ...
T332C 001:098.535   CPU_WriteMem(640 bytes @ 0x20000180)
T332C 001:106.909 - 8.408ms returns 0x280
T332C 001:106.935 JLINK_WriteMem(0x20000400, 0x0180 Bytes, ...)
T332C 001:106.941   Data:  06 B0 80 BD 70 47 00 00 B0 B5 04 46 90 F8 3C 00 ...
T332C 001:106.960   CPU_WriteMem(384 bytes @ 0x20000400)
T332C 001:112.245 - 5.319ms returns 0x180
T332C 001:112.268 JLINK_WriteReg(R0, 0x08001000)
T332C 001:112.277 - 0.011ms returns 0x00
T332C 001:112.281 JLINK_WriteReg(R1, 0x00000400)
T332C 001:112.285 - 0.005ms returns 0x00
T332C 001:112.289 JLINK_WriteReg(R2, 0x20000180)
T332C 001:112.293 - 0.005ms returns 0x00
T332C 001:112.297 JLINK_WriteReg(R3, 0x00000000)
T332C 001:112.301 - 0.005ms returns 0x00
T332C 001:112.305 JLINK_WriteReg(R4, 0x00000000)
T332C 001:112.308 - 0.005ms returns 0x00
T332C 001:112.314 JLINK_WriteReg(R5, 0x00000000)
T332C 001:112.318 - 0.005ms returns 0x00
T332C 001:112.322 JLINK_WriteReg(R6, 0x00000000)
T332C 001:112.326 - 0.005ms returns 0x00
T332C 001:112.331 JLINK_WriteReg(R7, 0x00000000)
T332C 001:112.335 - 0.005ms returns 0x00
T332C 001:112.339 JLINK_WriteReg(R8, 0x00000000)
T332C 001:112.343 - 0.005ms returns 0x00
T332C 001:112.347 JLINK_WriteReg(R9, 0x2000017C)
T332C 001:112.350 - 0.005ms returns 0x00
T332C 001:112.354 JLINK_WriteReg(R10, 0x00000000)
T332C 001:112.358 - 0.005ms returns 0x00
T332C 001:112.362 JLINK_WriteReg(R11, 0x00000000)
T332C 001:112.366 - 0.005ms returns 0x00
T332C 001:112.370 JLINK_WriteReg(R12, 0x00000000)
T332C 001:112.373 - 0.005ms returns 0x00
T332C 001:112.378 JLINK_WriteReg(R13 (SP), 0x20001000)
T332C 001:112.382 - 0.006ms returns 0x00
T332C 001:112.386 JLINK_WriteReg(R14, 0x20000001)
T332C 001:112.390 - 0.005ms returns 0x00
T332C 001:112.394 JLINK_WriteReg(R15 (PC), 0x20000108)
T332C 001:112.398 - 0.005ms returns 0x00
T332C 001:112.403 JLINK_WriteReg(XPSR, 0x01000000)
T332C 001:112.407 - 0.005ms returns 0x00
T332C 001:112.413 JLINK_WriteReg(MSP, 0x20001000)
T332C 001:112.417 - 0.005ms returns 0x00
T332C 001:112.421 JLINK_WriteReg(PSP, 0x20001000)
T332C 001:112.453 - 0.045ms returns 0x00
T332C 001:112.471 JLINK_WriteReg(CFBP, 0x00000000)
T332C 001:112.475 - 0.005ms returns 0x00
T332C 001:112.480   JLINK_SetBPEx(Addr = 0x20000000, Type = 0xFFFFFFF2)
T332C 001:112.485 - 0.008ms returns 0x0000000A
T332C 001:112.490 JLINK_Go()
T332C 001:112.502   CPU_ReadMem(4 bytes @ 0xE0001000)
T332C 001:117.157 - 4.681ms
T332C 001:117.182 JLINK_IsHalted()
T332C 001:117.987 - 0.811ms returns FALSE
T332C 001:124.242 JLINK_IsHalted()
T332C 001:128.137   CPU_ReadMem(2 bytes @ 0x20000000)
T332C 001:129.018 - 4.784ms returns TRUE
T332C 001:129.031 JLINK_ReadReg(R15 (PC))
T332C 001:129.038 - 0.009ms returns 0x20000000
T332C 001:129.043 JLINK_ClrBPEx(BPHandle = 0x0000000A)
T332C 001:129.047 - 0.005ms returns 0x00
T332C 001:129.051 JLINK_ReadReg(R0)
T332C 001:129.055 - 0.005ms returns 0x00000000
T332C 001:129.445 JLINK_WriteMem(0x20000180, 0x0280 Bytes, ...)
T332C 001:129.453   Data:  FF 71 C4 F2 00 01 88 42 17 DC B0 F1 80 4F 27 D0 ...
T332C 001:129.464   CPU_WriteMem(640 bytes @ 0x20000180)
T332C 001:137.836 - 8.406ms returns 0x280
T332C 001:137.859 JLINK_WriteMem(0x20000400, 0x0180 Bytes, ...)
T332C 001:137.864   Data:  40 22 C0 F2 0F 02 92 FB F0 F0 42 1E CA 62 00 EB ...
T332C 001:137.881   CPU_WriteMem(384 bytes @ 0x20000400)
T332C 001:143.280 - 5.431ms returns 0x180
T332C 001:143.304 JLINK_WriteReg(R0, 0x08001400)
T332C 001:143.313 - 0.011ms returns 0x00
T332C 001:143.318 JLINK_WriteReg(R1, 0x00000400)
T332C 001:143.322 - 0.019ms returns 0x00
T332C 001:143.340 JLINK_WriteReg(R2, 0x20000180)
T332C 001:143.343 - 0.005ms returns 0x00
T332C 001:143.366 JLINK_WriteReg(R3, 0x00000000)
T332C 001:143.370 - 0.005ms returns 0x00
T332C 001:143.374 JLINK_WriteReg(R4, 0x00000000)
T332C 001:143.378 - 0.005ms returns 0x00
T332C 001:143.384 JLINK_WriteReg(R5, 0x00000000)
T332C 001:143.387 - 0.005ms returns 0x00
T332C 001:143.392 JLINK_WriteReg(R6, 0x00000000)
T332C 001:143.395 - 0.005ms returns 0x00
T332C 001:143.401 JLINK_WriteReg(R7, 0x00000000)
T332C 001:143.405 - 0.005ms returns 0x00
T332C 001:143.409 JLINK_WriteReg(R8, 0x00000000)
T332C 001:143.412 - 0.005ms returns 0x00
T332C 001:143.418 JLINK_WriteReg(R9, 0x2000017C)
T332C 001:143.422 - 0.005ms returns 0x00
T332C 001:143.428 JLINK_WriteReg(R10, 0x00000000)
T332C 001:143.432 - 0.005ms returns 0x00
T332C 001:143.436 JLINK_WriteReg(R11, 0x00000000)
T332C 001:143.439 - 0.005ms returns 0x00
T332C 001:143.445 JLINK_WriteReg(R12, 0x00000000)
T332C 001:143.448 - 0.005ms returns 0x00
T332C 001:143.452 JLINK_WriteReg(R13 (SP), 0x20001000)
T332C 001:143.457 - 0.006ms returns 0x00
T332C 001:143.461 JLINK_WriteReg(R14, 0x20000001)
T332C 001:143.465 - 0.005ms returns 0x00
T332C 001:143.469 JLINK_WriteReg(R15 (PC), 0x20000108)
T332C 001:143.487 - 0.019ms returns 0x00
T332C 001:143.491 JLINK_WriteReg(XPSR, 0x01000000)
T332C 001:143.495 - 0.024ms returns 0x00
T332C 001:143.517 JLINK_WriteReg(MSP, 0x20001000)
T332C 001:143.521 - 0.005ms returns 0x00
T332C 001:143.525 JLINK_WriteReg(PSP, 0x20001000)
T332C 001:143.529 - 0.005ms returns 0x00
T332C 001:143.534 JLINK_WriteReg(CFBP, 0x00000000)
T332C 001:143.538 - 0.005ms returns 0x00
T332C 001:143.665   JLINK_SetBPEx(Addr = 0x20000000, Type = 0xFFFFFFF2)
T332C 001:143.677 - 0.015ms returns 0x0000000B
T332C 001:143.682 JLINK_Go()
T332C 001:143.694   CPU_ReadMem(4 bytes @ 0xE0001000)
T332C 001:148.441 - 4.768ms
T332C 001:148.456 JLINK_IsHalted()
T332C 001:149.222 - 0.772ms returns FALSE
T332C 001:159.136 JLINK_IsHalted()
T332C 001:163.145   CPU_ReadMem(2 bytes @ 0x20000000)
T332C 001:164.084 - 4.956ms returns TRUE
T332C 001:164.099 JLINK_ReadReg(R15 (PC))
T332C 001:164.106 - 0.009ms returns 0x20000000
T332C 001:164.111 JLINK_ClrBPEx(BPHandle = 0x0000000B)
T332C 001:164.115 - 0.005ms returns 0x00
T332C 001:164.120 JLINK_ReadReg(R0)
T332C 001:164.124 - 0.005ms returns 0x00000000
T332C 001:165.752 JLINK_WriteMem(0x20000180, 0x0280 Bytes, ...)
T332C 001:165.763   Data:  2D E9 F0 47 86 B0 00 24 43 F6 30 00 05 94 CD E9 ...
T332C 001:165.786   CPU_WriteMem(640 bytes @ 0x20000180)
T332C 001:174.216 - 8.479ms returns 0x280
T332C 001:174.256 JLINK_WriteMem(0x20000400, 0x0180 Bytes, ...)
T332C 001:174.261   Data:  00 00 08 A9 FF F7 88 FA 00 28 18 BF FE F7 EC FC ...
T332C 001:174.295   CPU_WriteMem(384 bytes @ 0x20000400)
T332C 001:179.927 - 5.732ms returns 0x180
T332C 001:180.102 JLINK_WriteReg(R0, 0x08001800)
T332C 001:180.134 - 0.034ms returns 0x00
T332C 001:180.140 JLINK_WriteReg(R1, 0x00000400)
T332C 001:180.145 - 0.007ms returns 0x00
T332C 001:180.151 JLINK_WriteReg(R2, 0x20000180)
T332C 001:180.156 - 0.007ms returns 0x00
T332C 001:180.160 JLINK_WriteReg(R3, 0x00000000)
T332C 001:180.163 - 0.005ms returns 0x00
T332C 001:180.167 JLINK_WriteReg(R4, 0x00000000)
T332C 001:180.171 - 0.005ms returns 0x00
T332C 001:180.175 JLINK_WriteReg(R5, 0x00000000)
T332C 001:180.178 - 0.005ms returns 0x00
T332C 001:180.182 JLINK_WriteReg(R6, 0x00000000)
T332C 001:180.186 - 0.005ms returns 0x00
T332C 001:180.208 JLINK_WriteReg(R7, 0x00000000)
T332C 001:180.212 - 0.005ms returns 0x00
T332C 001:180.230 JLINK_WriteReg(R8, 0x00000000)
T332C 001:180.234 - 0.005ms returns 0x00
T332C 001:180.237 JLINK_WriteReg(R9, 0x2000017C)
T332C 001:180.241 - 0.005ms returns 0x00
T332C 001:180.264 JLINK_WriteReg(R10, 0x00000000)
T332C 001:180.268 - 0.005ms returns 0x00
T332C 001:180.272 JLINK_WriteReg(R11, 0x00000000)
T332C 001:180.275 - 0.005ms returns 0x00
T332C 001:180.279 JLINK_WriteReg(R12, 0x00000000)
T332C 001:180.283 - 0.005ms returns 0x00
T332C 001:180.287 JLINK_WriteReg(R13 (SP), 0x20001000)
T332C 001:180.292 - 0.006ms returns 0x00
T332C 001:180.296 JLINK_WriteReg(R14, 0x20000001)
T332C 001:180.300 - 0.005ms returns 0x00
T332C 001:180.304 JLINK_WriteReg(R15 (PC), 0x20000108)
T332C 001:180.308 - 0.005ms returns 0x00
T332C 001:180.312 JLINK_WriteReg(XPSR, 0x01000000)
